T7F44 000:007.038   SEGGER J-Link V8.76 Log File
T7F44 000:007.146   DLL Compiled: Oct  8 2025 11:30:23
T7F44 000:007.150   Logging started @ 2025-12-19 09:49
T7F44 000:007.154   Process: C:\Keil_v5\UV4\UV4.exe
T7F44 000:007.164 - 7.157ms 
T7F44 000:007.171 JLINK_SetWarnOutHandler(...)
T7F44 000:007.174 - 0.004ms 
T7F44 000:007.183 JLINK_OpenEx(...)
T7F44 000:011.034   Firmware: J-Link V13 compiled Jun 21 2023 09:20:55
T7F44 000:012.081   Firmware: J-Link V13 compiled Jun 21 2023 09:20:55
T7F44 000:031.187   Hardware: V13.00
T7F44 000:031.200   S/N: 941000024
T7F44 000:031.205   OEM: SEGGER
T7F44 000:031.211   Feature(s): RDI, FlashBP, FlashDL, JFlash, GDB
T7F44 000:032.453   Bootloader: (FW returned invalid version)
T7F44 000:033.150   USB speed mode: High speed (480 MBit/s)
T7F44 000:033.155   Active J-Link Eco level: 3 (https://wiki.segger.com/J-Link_Eco)
T7F44 000:033.520   TELNET listener socket opened on port 19021
T7F44 000:033.595   WEBSRV WEBSRV_Init(): Starting webserver thread(s)
T7F44 000:033.763   WEBSRV Webserver running on local port 19080
T7F44 000:033.838   Looking for J-Link GUI Server exe at: C:\Keil_v5\ARM\Segger\JLinkGUIServer.exe
T7F44 000:033.898   Looking for J-Link GUI Server exe at: C:\Program Files\SEGGER\JLink_V876\JLinkGUIServer.exe
T7F44 000:340.097   Failed to connect to J-Link GUI Server.
T7F44 000:340.121 - 332.933ms returns "O.K."
T7F44 000:340.134 JLINK_GetEmuCaps()
T7F44 000:340.140 - 0.003ms returns 0xB9FF7BBF
T7F44 000:340.154 JLINK_TIF_GetAvailable(...)
T7F44 000:340.529 - 0.375ms 
T7F44 000:340.534 JLINK_SetErrorOutHandler(...)
T7F44 000:340.538 - 0.003ms 
T7F44 000:340.555 JLINK_ExecCommand("ProjectFile = "D:\work\Sample_Code\PY32F072&PY32F071&PY32F070\PY32F07x_IAP_APP_Firmware_V0.0.3\Projects\PY32F072xx_IAP\MDK-ARM\JLinkSettings.ini"", ...). 
T7F44 000:359.683   XML file found at: C:\Users\MARC\AppData\Roaming\SEGGER\JLinkDevices\Devices\PY32\Devices.xml
T7F44 000:360.456   C:\Users\MARC\AppData\Roaming\SEGGER\JLinkDevices\Devices\PY32\Devices.xml evaluated successfully.
T7F44 000:361.205   Ref file found at: C:\Keil_v5\ARM\Segger\JLinkDevices.ref
T7F44 000:361.259   REF file references invalid XML file: C:\Program Files\SEGGER\JLink_V876\JLinkDevices.xml
T7F44 000:363.756   Device "CORTEX-M0+" selected.
T7F44 000:363.994 - 23.439ms returns 0x00
T7F44 000:364.770 JLINK_ExecCommand("Device = PY32F072xB", ...). 
T7F44 000:365.453   Device "CORTEX-M0+" selected.
T7F44 000:365.624 - 0.844ms returns 0x00
T7F44 000:365.636 JLINK_ExecCommand("DisableConnectionTimeout", ...). 
T7F44 000:365.649   ERROR: Unknown command
T7F44 000:365.654 - 0.013ms returns 0x01
T7F44 000:365.660 JLINK_GetHardwareVersion()
T7F44 000:365.665 - 0.003ms returns 130000
T7F44 000:365.694 JLINK_GetDLLVersion()
T7F44 000:365.704 - 0.009ms returns 87600
T7F44 000:365.708 JLINK_GetOEMString(...)
T7F44 000:365.712 JLINK_GetFirmwareString(...)
T7F44 000:365.716 - 0.003ms 
T7F44 000:370.294 JLINK_GetDLLVersion()
T7F44 000:370.304 - 0.010ms returns 87600
T7F44 000:370.308 JLINK_GetCompileDateTime()
T7F44 000:370.311 - 0.003ms 
T7F44 000:371.426 JLINK_GetFirmwareString(...)
T7F44 000:371.438 - 0.015ms 
T7F44 000:373.017 JLINK_GetHardwareVersion()
T7F44 000:373.030 - 0.012ms returns 130000
T7F44 000:375.101 JLINK_GetSN()
T7F44 000:375.112 - 0.010ms returns 941000024
T7F44 000:376.269 JLINK_GetOEMString(...)
T7F44 000:378.396 JLINK_TIF_Select(JLINKARM_TIF_SWD)
T7F44 000:379.652 - 1.259ms returns 0x00
T7F44 000:379.658 JLINK_HasError()
T7F44 000:379.670 JLINK_SetSpeed(5000)
T7F44 000:379.947 - 0.277ms 
T7F44 000:379.952 JLINK_GetId()
T7F44 000:382.258   Found SW-DP with ID 0x0BC11477
T7F44 000:386.529   DPIDR: 0x0BC11477
T7F44 000:387.600   CoreSight SoC-400 or earlier
T7F44 000:390.970   Scanning AP map to find all available APs
T7F44 000:393.130   AP[1]: Stopped AP scan as end of AP map has been reached
T7F44 000:394.215   AP[0]: AHB-AP (IDR: 0x04770031, ADDR: 0x00000000)
T7F44 000:395.332   Iterating through AP map to find AHB-AP to use
T7F44 000:397.401   AP[0]: Core found
T7F44 000:407.676   AP[0]: AHB-AP ROM base: 0xE00FF000
T7F44 000:409.349   CPUID register: 0x410CC601. Implementer code: 0x41 (ARM)
T7F44 000:410.519   Found Cortex-M0 r0p1, Little endian.
T7F44 000:411.220   -- Max. mem block: 0x00003BA8
T7F44 000:411.915   CPU_ReadMem(4 bytes @ 0xE000EDF0)
T7F44 000:412.408   CPU_WriteMem(4 bytes @ 0xE000EDF0)
T7F44 000:412.969   CPU_ReadMem(4 bytes @ 0xE0002000)
T7F44 000:414.573   FPUnit: 4 code (BP) slots and 0 literal slots
T7F44 000:414.588   CPU_ReadMem(4 bytes @ 0xE000EDFC)
T7F44 000:415.160   CPU_WriteMem(4 bytes @ 0xE000EDFC)
T7F44 000:415.758   CPU_ReadMem(4 bytes @ 0xE0001000)
T7F44 000:416.195   CPU_WriteMem(4 bytes @ 0xE0001000)
T7F44 000:417.904   CoreSight components:
T7F44 000:418.984   ROMTbl[0] @ E00FF000
T7F44 000:418.997   CPU_ReadMem(64 bytes @ 0xE00FF000)
T7F44 000:419.706   CPU_ReadMem(32 bytes @ 0xE000EFE0)
T7F44 000:425.401   [0][0]: E000E000 CID B105E00D PID 000BB008 SCS
T7F44 000:425.430   CPU_ReadMem(32 bytes @ 0xE0001FE0)
T7F44 000:427.260   [0][1]: E0001000 CID B105E00D PID 000BB00A DWT
T7F44 000:427.279   CPU_ReadMem(32 bytes @ 0xE0002FE0)
T7F44 000:429.043   [0][2]: E0002000 CID B105E00D PID 000BB00B FPB
T7F44 000:429.471 - 49.518ms returns 0x0BC11477
T7F44 000:429.511 JLINK_GetDLLVersion()
T7F44 000:429.515 - 0.003ms returns 87600
T7F44 000:429.519 JLINK_CORE_GetFound()
T7F44 000:429.523 - 0.003ms returns 0x60000FF
T7F44 000:429.527 JLINK_GetDebugInfo(0x100 = JLINKARM_ROM_TABLE_ADDR_INDEX)
T7F44 000:429.530   Value=0xE00FF000
T7F44 000:429.535 - 0.008ms returns 0
T7F44 000:430.614 JLINK_GetDebugInfo(0x100 = JLINKARM_ROM_TABLE_ADDR_INDEX)
T7F44 000:430.624   Value=0xE00FF000
T7F44 000:430.629 - 0.015ms returns 0
T7F44 000:430.633 JLINK_GetDebugInfo(0x101 = JLINKARM_DEBUG_INFO_ETM_ADDR_INDEX)
T7F44 000:430.636   Value=0x00000000
T7F44 000:430.641 - 0.008ms returns 0
T7F44 000:430.645 JLINK_ReadMemEx(0xE0041FF0, 0x10 Bytes, Flags = 0x02000004)
T7F44 000:430.671   CPU_ReadMem(16 bytes @ 0xE0041FF0)
T7F44 000:431.267   Data:  00 00 00 00 00 00 00 00 00 00 00 00 00 00 00 00
T7F44 000:431.278 - 0.632ms returns 16 (0x10)
T7F44 000:431.284 JLINK_GetDebugInfo(0x102 = JLINKARM_DEBUG_INFO_MTB_ADDR_INDEX)
T7F44 000:431.287   Value=0x00000000
T7F44 000:431.292 - 0.008ms returns 0
T7F44 000:431.295 JLINK_GetDebugInfo(0x103 = JLINKARM_DEBUG_INFO_TPIU_ADDR_INDEX)
T7F44 000:431.298   Value=0x00000000
T7F44 000:431.303 - 0.007ms returns 0
T7F44 000:431.306 JLINK_GetDebugInfo(0x104 = JLINKARM_DEBUG_INFO_ITM_ADDR_INDEX)
T7F44 000:431.309   Value=0xE0000000
T7F44 000:431.314 - 0.007ms returns 0
T7F44 000:431.317 JLINK_GetDebugInfo(0x105 = JLINKARM_DEBUG_INFO_DWT_ADDR_INDEX)
T7F44 000:431.320   Value=0xE0001000
T7F44 000:431.325 - 0.007ms returns 0
T7F44 000:431.328 JLINK_GetDebugInfo(0x106 = JLINKARM_DEBUG_INFO_FPB_ADDR_INDEX)
T7F44 000:431.331   Value=0xE0002000
T7F44 000:431.335 - 0.007ms returns 0
T7F44 000:431.339 JLINK_GetDebugInfo(0x107 = JLINKARM_DEBUG_INFO_NVIC_ADDR_INDEX)
T7F44 000:431.342   Value=0xE000E000
T7F44 000:431.346 - 0.007ms returns 0
T7F44 000:431.350 JLINK_GetDebugInfo(0x10C = JLINKARM_DEBUG_INFO_DBG_ADDR_INDEX)
T7F44 000:431.353   Value=0xE000EDF0
T7F44 000:431.357 - 0.007ms returns 0
T7F44 000:431.361 JLINK_GetDebugInfo(0x01 = Unknown)
T7F44 000:431.364   Value=0x00000000
T7F44 000:431.368 - 0.007ms returns 0
T7F44 000:431.372 JLINK_ReadMemU32(0xE000ED00, 0x1 Items)
T7F44 000:431.378   CPU_ReadMem(4 bytes @ 0xE000ED00)
T7F44 000:431.823   Data:  01 C6 0C 41
T7F44 000:431.841   Debug reg: CPUID
T7F44 000:431.846 - 0.474ms returns 1 (0x1)
T7F44 000:431.852 JLINK_GetDebugInfo(0x10F = JLINKARM_DEBUG_INFO_HAS_CORTEX_M_SECURITY_EXT_INDEX)
T7F44 000:431.856   Value=0x00000000
T7F44 000:431.860 - 0.008ms returns 0
T7F44 000:431.864 JLINK_HasError()
T7F44 000:431.869 JLINK_SetResetType(JLINKARM_CM3_RESET_TYPE_NORMAL)
T7F44 000:431.872 - 0.003ms returns JLINKARM_CM3_RESET_TYPE_NORMAL
T7F44 000:431.876 JLINK_Reset()
T7F44 000:431.882   JLINK_GetResetTypeDesc
T7F44 000:431.886   - 0.004ms 
T7F44 000:433.062   Reset type: NORMAL (https://wiki.segger.com/J-Link_Reset_Strategies)
T7F44 000:433.082   CPU is running
T7F44 000:433.088   CPU_WriteMem(4 bytes @ 0xE000EDF0)
T7F44 000:433.614   CPU is running
T7F44 000:433.619   CPU_WriteMem(4 bytes @ 0xE000EDFC)
T7F44 000:437.568   Reset: Halt core after reset via DEMCR.VC_CORERESET.
T7F44 000:439.644   Reset: Reset device via AIRCR.SYSRESETREQ.
T7F44 000:439.658   CPU is running
T7F44 000:439.664   CPU_WriteMem(4 bytes @ 0xE000ED0C)
T7F44 000:493.496   CPU_ReadMem(4 bytes @ 0xE000EDF0)
T7F44 000:494.083   CPU_ReadMem(4 bytes @ 0xE000EDF0)
T7F44 000:497.467   CPU_WriteMem(4 bytes @ 0xE000EDFC)
T7F44 000:503.833   CPU_ReadMem(4 bytes @ 0xE000EDF0)
T7F44 000:507.036   CPU_WriteMem(4 bytes @ 0xE0002000)
T7F44 000:507.595   CPU_ReadMem(4 bytes @ 0xE000EDFC)
T7F44 000:508.112   CPU_ReadMem(4 bytes @ 0xE0001000)
T7F44 000:508.597   CPU_WriteMem(4 bytes @ 0xE0001000)
T7F44 000:509.118 - 77.241ms 
T7F44 000:509.150 JLINK_Halt()
T7F44 000:509.154 - 0.003ms returns 0x00
T7F44 000:509.158 JLINK_ReadMemU32(0xE000EDF0, 0x1 Items)
T7F44 000:509.165   CPU_ReadMem(4 bytes @ 0xE000EDF0)
T7F44 000:509.653   Data:  03 00 03 00
T7F44 000:509.659   Debug reg: DHCSR
T7F44 000:509.663 - 0.505ms returns 1 (0x1)
T7F44 000:509.670 JLINK_WriteU32(0xE000EDF0, 0xA05F0003)
T7F44 000:509.674   Debug reg: DHCSR
T7F44 000:509.905   CPU_WriteMem(4 bytes @ 0xE000EDF0)
T7F44 000:510.422 - 0.754ms returns 0 (0x00000000)
T7F44 000:510.427 JLINK_WriteU32(0xE000EDFC, 0x01000000)
T7F44 000:510.431   Debug reg: DEMCR
T7F44 000:510.436   CPU_WriteMem(4 bytes @ 0xE000EDFC)
T7F44 000:510.954 - 0.526ms returns 0 (0x00000000)
T7F44 000:519.337 JLINK_GetHWStatus(...)
T7F44 000:519.734 - 0.396ms returns 0
T7F44 000:522.958 JLINK_GetNumBPUnits(Type = 0xFFFFFF00)
T7F44 000:522.974 - 0.015ms returns 0x04
T7F44 000:522.978 JLINK_GetNumBPUnits(Type = 0xF0)
T7F44 000:522.981 - 0.003ms returns 0x2000
T7F44 000:522.985 JLINK_GetNumWPUnits()
T7F44 000:522.988 - 0.003ms returns 2
T7F44 000:526.044 JLINK_GetSpeed()
T7F44 000:526.055 - 0.011ms returns 5000
T7F44 000:528.486 JLINK_ReadMemU32(0xE000E004, 0x1 Items)
T7F44 000:528.504   CPU_ReadMem(4 bytes @ 0xE000E004)
T7F44 000:529.073   Data:  00 00 00 00
T7F44 000:529.084 - 0.598ms returns 1 (0x1)
T7F44 000:529.093 JLINK_Halt()
T7F44 000:529.097 - 0.003ms returns 0x00
T7F44 000:529.101 JLINK_IsHalted()
T7F44 000:529.105 - 0.003ms returns TRUE
T7F44 000:541.741 JLINK_WriteMem(0x20000000, 0x408 Bytes, ...)
T7F44 000:541.751   Data:  00 BE 0A E0 0D 78 2D 06 68 40 08 24 40 00 00 D3 ...
T7F44 000:541.956   CPU_WriteMem(1032 bytes @ 0x20000000)
T7F44 000:546.184 - 4.443ms returns 0x408
T7F44 000:546.221 JLINK_HasError()
T7F44 000:546.228 JLINK_WriteReg(R0, 0x08000000)
T7F44 000:546.234 - 0.005ms returns 0
T7F44 000:546.237 JLINK_WriteReg(R1, 0x00B71B00)
T7F44 000:546.241 - 0.003ms returns 0
T7F44 000:546.244 JLINK_WriteReg(R2, 0x00000001)
T7F44 000:546.247 - 0.003ms returns 0
T7F44 000:546.250 JLINK_WriteReg(R3, 0x00000000)
T7F44 000:546.254 - 0.003ms returns 0
T7F44 000:546.257 JLINK_WriteReg(R4, 0x00000000)
T7F44 000:546.265 - 0.007ms returns 0
T7F44 000:546.270 JLINK_WriteReg(R5, 0x00000000)
T7F44 000:546.273 - 0.003ms returns 0
T7F44 000:546.277 JLINK_WriteReg(R6, 0x00000000)
T7F44 000:546.280 - 0.003ms returns 0
T7F44 000:546.283 JLINK_WriteReg(R7, 0x00000000)
T7F44 000:546.286 - 0.003ms returns 0
T7F44 000:546.301 JLINK_WriteReg(R8, 0x00000000)
T7F44 000:546.305 - 0.015ms returns 0
T7F44 000:546.308 JLINK_WriteReg(R9, 0x20000400)
T7F44 000:546.311 - 0.003ms returns 0
T7F44 000:546.315 JLINK_WriteReg(R10, 0x00000000)
T7F44 000:546.318 - 0.003ms returns 0
T7F44 000:546.322 JLINK_WriteReg(R11, 0x00000000)
T7F44 000:546.325 - 0.003ms returns 0
T7F44 000:546.328 JLINK_WriteReg(R12, 0x00000000)
T7F44 000:546.332 - 0.003ms returns 0
T7F44 000:546.336 JLINK_WriteReg(R13 (SP), 0x20001000)
T7F44 000:546.339 - 0.004ms returns 0
T7F44 000:546.343 JLINK_WriteReg(R14, 0x20000001)
T7F44 000:546.346 - 0.003ms returns 0
T7F44 000:546.354 JLINK_WriteReg(R15 (PC), 0x200001A8)
T7F44 000:546.357 - 0.003ms returns 0
T7F44 000:546.361 JLINK_WriteReg(XPSR, 0x01000000)
T7F44 000:546.364 - 0.003ms returns 0
T7F44 000:546.367 JLINK_WriteReg(MSP, 0x20001000)
T7F44 000:546.370 - 0.003ms returns 0
T7F44 000:546.374 JLINK_WriteReg(PSP, 0x20001000)
T7F44 000:546.386 - 0.012ms returns 0
T7F44 000:546.390 JLINK_WriteReg(CFBP, 0x00000000)
T7F44 000:546.393 - 0.003ms returns 0
T7F44 000:546.397 JLINK_SetBPEx(Addr = 0x20000000, Type = 0xFFFFFFF2)
T7F44 000:546.408   CPU_ReadMem(4 bytes @ 0x20000000)
T7F44 000:546.881   CPU_WriteMem(4 bytes @ 0x20000000)
T7F44 000:547.372   CPU_ReadMem(4 bytes @ 0x20000000)
T7F44 000:547.909   CPU_WriteMem(4 bytes @ 0x20000000)
T7F44 000:548.455   CPU_ReadMem(2 bytes @ 0x20000000)
T7F44 000:548.952 - 2.555ms returns 0x00000001
T7F44 000:548.959 JLINK_Go()
T7F44 000:548.973   CPU_WriteMem(2 bytes @ 0x20000000)
T7F44 000:549.577   CPU_ReadMem(4 bytes @ 0xE0001000)
T7F44 000:550.034   CPU_WriteMem(4 bytes @ 0xE0001000)
T7F44 000:550.553   CPU_WriteMem(4 bytes @ 0xE0002008)
T7F44 000:550.558   CPU_WriteMem(4 bytes @ 0xE000200C)
T7F44 000:550.563   CPU_WriteMem(4 bytes @ 0xE0002010)
T7F44 000:550.567   CPU_WriteMem(4 bytes @ 0xE0002014)
T7F44 000:551.778   CPU_WriteMem(4 bytes @ 0xE0001004)
T7F44 000:557.315   Memory map 'after startup completion point' is active
T7F44 000:557.328 - 8.368ms 
T7F44 000:557.333 JLINK_IsHalted()
T7F44 000:559.982   CPU_ReadMem(2 bytes @ 0x20000000)
T7F44 000:560.553 - 3.219ms returns TRUE
T7F44 000:560.569 JLINK_ReadReg(R15 (PC))
T7F44 000:560.574 - 0.005ms returns 0x20000000
T7F44 000:560.600 JLINK_ClrBPEx(BPHandle = 0x00000001)
T7F44 000:560.604 - 0.004ms returns 0x00
T7F44 000:560.608 JLINK_ReadReg(R0)
T7F44 000:560.612 - 0.003ms returns 0x00000000
T7F44 000:561.489 JLINK_HasError()
T7F44 000:561.496 JLINK_WriteReg(R0, 0x08000000)
T7F44 000:561.500 - 0.004ms returns 0
T7F44 000:561.504 JLINK_WriteReg(R1, 0x00002000)
T7F44 000:561.507 - 0.003ms returns 0
T7F44 000:561.511 JLINK_WriteReg(R2, 0x000000FF)
T7F44 000:561.514 - 0.003ms returns 0
T7F44 000:561.517 JLINK_WriteReg(R3, 0x00000000)
T7F44 000:561.520 - 0.003ms returns 0
T7F44 000:561.524 JLINK_WriteReg(R4, 0x00000000)
T7F44 000:561.527 - 0.003ms returns 0
T7F44 000:561.531 JLINK_WriteReg(R5, 0x00000000)
T7F44 000:561.534 - 0.003ms returns 0
T7F44 000:561.537 JLINK_WriteReg(R6, 0x00000000)
T7F44 000:561.540 - 0.003ms returns 0
T7F44 000:561.544 JLINK_WriteReg(R7, 0x00000000)
T7F44 000:561.547 - 0.003ms returns 0
T7F44 000:561.550 JLINK_WriteReg(R8, 0x00000000)
T7F44 000:561.553 - 0.003ms returns 0
T7F44 000:561.557 JLINK_WriteReg(R9, 0x20000400)
T7F44 000:561.560 - 0.003ms returns 0
T7F44 000:561.563 JLINK_WriteReg(R10, 0x00000000)
T7F44 000:561.566 - 0.003ms returns 0
T7F44 000:561.570 JLINK_WriteReg(R11, 0x00000000)
T7F44 000:561.573 - 0.003ms returns 0
T7F44 000:561.577 JLINK_WriteReg(R12, 0x00000000)
T7F44 000:561.580 - 0.003ms returns 0
T7F44 000:561.584 JLINK_WriteReg(R13 (SP), 0x20001000)
T7F44 000:561.587 - 0.003ms returns 0
T7F44 000:561.590 JLINK_WriteReg(R14, 0x20000001)
T7F44 000:561.593 - 0.003ms returns 0
T7F44 000:561.597 JLINK_WriteReg(R15 (PC), 0x2000031C)
T7F44 000:561.600 - 0.003ms returns 0
T7F44 000:561.604 JLINK_WriteReg(XPSR, 0x01000000)
T7F44 000:561.607 - 0.003ms returns 0
T7F44 000:561.610 JLINK_WriteReg(MSP, 0x20001000)
T7F44 000:561.613 - 0.003ms returns 0
T7F44 000:561.617 JLINK_WriteReg(PSP, 0x20001000)
T7F44 000:561.620 - 0.003ms returns 0
T7F44 000:561.623 JLINK_WriteReg(CFBP, 0x00000000)
T7F44 000:561.626 - 0.003ms returns 0
T7F44 000:561.630 JLINK_SetBPEx(Addr = 0x20000000, Type = 0xFFFFFFF2)
T7F44 000:561.634 - 0.003ms returns 0x00000002
T7F44 000:561.637 JLINK_Go()
T7F44 000:561.643   CPU_ReadMem(4 bytes @ 0xE0001000)
T7F44 000:564.946 - 3.308ms 
T7F44 000:564.954 JLINK_IsHalted()
T7F44 000:567.581   CPU_ReadMem(2 bytes @ 0x20000000)
T7F44 000:568.078 - 3.123ms returns TRUE
T7F44 000:568.083 JLINK_ReadReg(R15 (PC))
T7F44 000:568.122 - 0.039ms returns 0x20000000
T7F44 000:568.126 JLINK_ClrBPEx(BPHandle = 0x00000002)
T7F44 000:568.130 - 0.003ms returns 0x00
T7F44 000:568.133 JLINK_ReadReg(R0)
T7F44 000:568.137 - 0.003ms returns 0x00000001
T7F44 000:568.140 JLINK_HasError()
T7F44 000:568.144 JLINK_WriteReg(R0, 0x08000000)
T7F44 000:568.147 - 0.003ms returns 0
T7F44 000:568.151 JLINK_WriteReg(R1, 0x00002000)
T7F44 000:568.154 - 0.003ms returns 0
T7F44 000:568.158 JLINK_WriteReg(R2, 0x000000FF)
T7F44 000:568.161 - 0.003ms returns 0
T7F44 000:568.165 JLINK_WriteReg(R3, 0x00000000)
T7F44 000:568.168 - 0.003ms returns 0
T7F44 000:568.171 JLINK_WriteReg(R4, 0x00000000)
T7F44 000:568.174 - 0.003ms returns 0
T7F44 000:568.177 JLINK_WriteReg(R5, 0x00000000)
T7F44 000:568.181 - 0.003ms returns 0
T7F44 000:568.184 JLINK_WriteReg(R6, 0x00000000)
T7F44 000:568.187 - 0.003ms returns 0
T7F44 000:568.191 JLINK_WriteReg(R7, 0x00000000)
T7F44 000:568.194 - 0.003ms returns 0
T7F44 000:568.197 JLINK_WriteReg(R8, 0x00000000)
T7F44 000:568.200 - 0.003ms returns 0
T7F44 000:568.204 JLINK_WriteReg(R9, 0x20000400)
T7F44 000:568.207 - 0.003ms returns 0
T7F44 000:568.210 JLINK_WriteReg(R10, 0x00000000)
T7F44 000:568.213 - 0.003ms returns 0
T7F44 000:568.216 JLINK_WriteReg(R11, 0x00000000)
T7F44 000:568.219 - 0.003ms returns 0
T7F44 000:568.223 JLINK_WriteReg(R12, 0x00000000)
T7F44 000:568.226 - 0.003ms returns 0
T7F44 000:568.229 JLINK_WriteReg(R13 (SP), 0x20001000)
T7F44 000:568.233 - 0.003ms returns 0
T7F44 000:568.236 JLINK_WriteReg(R14, 0x20000001)
T7F44 000:568.239 - 0.003ms returns 0
T7F44 000:568.243 JLINK_WriteReg(R15 (PC), 0x200002AC)
T7F44 000:568.246 - 0.003ms returns 0
T7F44 000:568.250 JLINK_WriteReg(XPSR, 0x01000000)
T7F44 000:568.253 - 0.003ms returns 0
T7F44 000:568.256 JLINK_WriteReg(MSP, 0x20001000)
T7F44 000:568.259 - 0.003ms returns 0
T7F44 000:568.263 JLINK_WriteReg(PSP, 0x20001000)
T7F44 000:568.266 - 0.003ms returns 0
T7F44 000:568.269 JLINK_WriteReg(CFBP, 0x00000000)
T7F44 000:568.272 - 0.003ms returns 0
T7F44 000:568.276 JLINK_SetBPEx(Addr = 0x20000000, Type = 0xFFFFFFF2)
T7F44 000:568.279 - 0.003ms returns 0x00000003
T7F44 000:568.283 JLINK_Go()
T7F44 000:568.288   CPU_ReadMem(4 bytes @ 0xE0001000)
T7F44 000:571.370 - 3.086ms 
T7F44 000:571.376 JLINK_IsHalted()
T7F44 000:575.248 - 3.872ms returns FALSE
T7F44 000:575.257 JLINK_HasError()
T7F44 000:584.258 JLINK_IsHalted()
T7F44 000:586.849   CPU_ReadMem(2 bytes @ 0x20000000)
T7F44 000:587.319 - 3.060ms returns TRUE
T7F44 000:587.328 JLINK_ReadReg(R15 (PC))
T7F44 000:587.333 - 0.005ms returns 0x20000000
T7F44 000:587.360 JLINK_ClrBPEx(BPHandle = 0x00000003)
T7F44 000:587.364 - 0.004ms returns 0x00
T7F44 000:587.368 JLINK_ReadReg(R0)
T7F44 000:587.371 - 0.003ms returns 0x00000000
T7F44 000:587.632 JLINK_HasError()
T7F44 000:587.640 JLINK_WriteReg(R0, 0x08002000)
T7F44 000:587.644 - 0.004ms returns 0
T7F44 000:587.648 JLINK_WriteReg(R1, 0x00002000)
T7F44 000:587.651 - 0.003ms returns 0
T7F44 000:587.654 JLINK_WriteReg(R2, 0x000000FF)
T7F44 000:587.657 - 0.003ms returns 0
T7F44 000:587.661 JLINK_WriteReg(R3, 0x00000000)
T7F44 000:587.664 - 0.003ms returns 0
T7F44 000:587.667 JLINK_WriteReg(R4, 0x00000000)
T7F44 000:587.670 - 0.003ms returns 0
T7F44 000:587.674 JLINK_WriteReg(R5, 0x00000000)
T7F44 000:587.677 - 0.003ms returns 0
T7F44 000:587.680 JLINK_WriteReg(R6, 0x00000000)
T7F44 000:587.683 - 0.003ms returns 0
T7F44 000:587.687 JLINK_WriteReg(R7, 0x00000000)
T7F44 000:587.690 - 0.003ms returns 0
T7F44 000:587.693 JLINK_WriteReg(R8, 0x00000000)
T7F44 000:587.696 - 0.003ms returns 0
T7F44 000:587.700 JLINK_WriteReg(R9, 0x20000400)
T7F44 000:587.703 - 0.003ms returns 0
T7F44 000:587.707 JLINK_WriteReg(R10, 0x00000000)
T7F44 000:587.710 - 0.003ms returns 0
T7F44 000:587.713 JLINK_WriteReg(R11, 0x00000000)
T7F44 000:587.716 - 0.003ms returns 0
T7F44 000:587.720 JLINK_WriteReg(R12, 0x00000000)
T7F44 000:587.723 - 0.003ms returns 0
T7F44 000:587.726 JLINK_WriteReg(R13 (SP), 0x20001000)
T7F44 000:587.733 - 0.007ms returns 0
T7F44 000:587.738 JLINK_WriteReg(R14, 0x20000001)
T7F44 000:587.741 - 0.003ms returns 0
T7F44 000:587.745 JLINK_WriteReg(R15 (PC), 0x2000031C)
T7F44 000:587.748 - 0.003ms returns 0
T7F44 000:587.751 JLINK_WriteReg(XPSR, 0x01000000)
T7F44 000:587.754 - 0.003ms returns 0
T7F44 000:587.758 JLINK_WriteReg(MSP, 0x20001000)
T7F44 000:587.761 - 0.003ms returns 0
T7F44 000:587.764 JLINK_WriteReg(PSP, 0x20001000)
T7F44 000:587.767 - 0.003ms returns 0
T7F44 000:587.771 JLINK_WriteReg(CFBP, 0x00000000)
T7F44 000:587.774 - 0.003ms returns 0
T7F44 000:587.778 JLINK_SetBPEx(Addr = 0x20000000, Type = 0xFFFFFFF2)
T7F44 000:587.781 - 0.003ms returns 0x00000004
T7F44 000:587.785 JLINK_Go()
T7F44 000:587.791   CPU_ReadMem(4 bytes @ 0xE0001000)
T7F44 000:591.070 - 3.284ms 
T7F44 000:591.082 JLINK_IsHalted()
T7F44 000:593.703   CPU_ReadMem(2 bytes @ 0x20000000)
T7F44 000:594.185 - 3.103ms returns TRUE
T7F44 000:594.193 JLINK_ReadReg(R15 (PC))
T7F44 000:594.198 - 0.005ms returns 0x20000000
T7F44 000:594.203 JLINK_ClrBPEx(BPHandle = 0x00000004)
T7F44 000:594.208 - 0.004ms returns 0x00
T7F44 000:594.213 JLINK_ReadReg(R0)
T7F44 000:594.217 - 0.004ms returns 0x00000001
T7F44 000:594.223 JLINK_HasError()
T7F44 000:594.229 JLINK_WriteReg(R0, 0x08002000)
T7F44 000:594.235 - 0.005ms returns 0
T7F44 000:594.241 JLINK_WriteReg(R1, 0x00002000)
T7F44 000:594.246 - 0.005ms returns 0
T7F44 000:594.251 JLINK_WriteReg(R2, 0x000000FF)
T7F44 000:594.257 - 0.005ms returns 0
T7F44 000:594.263 JLINK_WriteReg(R3, 0x00000000)
T7F44 000:594.268 - 0.005ms returns 0
T7F44 000:594.274 JLINK_WriteReg(R4, 0x00000000)
T7F44 000:594.279 - 0.005ms returns 0
T7F44 000:594.284 JLINK_WriteReg(R5, 0x00000000)
T7F44 000:594.290 - 0.005ms returns 0
T7F44 000:594.295 JLINK_WriteReg(R6, 0x00000000)
T7F44 000:594.301 - 0.005ms returns 0
T7F44 000:594.306 JLINK_WriteReg(R7, 0x00000000)
T7F44 000:594.311 - 0.005ms returns 0
T7F44 000:594.317 JLINK_WriteReg(R8, 0x00000000)
T7F44 000:594.322 - 0.005ms returns 0
T7F44 000:594.328 JLINK_WriteReg(R9, 0x20000400)
T7F44 000:594.333 - 0.005ms returns 0
T7F44 000:594.339 JLINK_WriteReg(R10, 0x00000000)
T7F44 000:594.344 - 0.005ms returns 0
T7F44 000:594.350 JLINK_WriteReg(R11, 0x00000000)
T7F44 000:594.355 - 0.005ms returns 0
T7F44 000:594.360 JLINK_WriteReg(R12, 0x00000000)
T7F44 000:594.365 - 0.005ms returns 0
T7F44 000:594.371 JLINK_WriteReg(R13 (SP), 0x20001000)
T7F44 000:594.376 - 0.005ms returns 0
T7F44 000:594.382 JLINK_WriteReg(R14, 0x20000001)
T7F44 000:594.387 - 0.005ms returns 0
T7F44 000:594.394 JLINK_WriteReg(R15 (PC), 0x200002AC)
T7F44 000:594.399 - 0.005ms returns 0
T7F44 000:594.405 JLINK_WriteReg(XPSR, 0x01000000)
T7F44 000:594.410 - 0.005ms returns 0
T7F44 000:594.416 JLINK_WriteReg(MSP, 0x20001000)
T7F44 000:594.421 - 0.005ms returns 0
T7F44 000:594.427 JLINK_WriteReg(PSP, 0x20001000)
T7F44 000:594.432 - 0.004ms returns 0
T7F44 000:594.437 JLINK_WriteReg(CFBP, 0x00000000)
T7F44 000:594.443 - 0.005ms returns 0
T7F44 000:594.449 JLINK_SetBPEx(Addr = 0x20000000, Type = 0xFFFFFFF2)
T7F44 000:594.454 - 0.005ms returns 0x00000005
T7F44 000:594.460 JLINK_Go()
T7F44 000:594.469   CPU_ReadMem(4 bytes @ 0xE0001000)
T7F44 000:597.627 - 3.166ms 
T7F44 000:597.632 JLINK_IsHalted()
T7F44 000:601.500 - 3.867ms returns FALSE
T7F44 000:601.511 JLINK_HasError()
T7F44 000:602.544 JLINK_IsHalted()
T7F44 000:605.184   CPU_ReadMem(2 bytes @ 0x20000000)
T7F44 000:605.704 - 3.160ms returns TRUE
T7F44 000:605.712 JLINK_ReadReg(R15 (PC))
T7F44 000:605.718 - 0.006ms returns 0x20000000
T7F44 000:605.723 JLINK_ClrBPEx(BPHandle = 0x00000005)
T7F44 000:605.728 - 0.005ms returns 0x00
T7F44 000:605.734 JLINK_ReadReg(R0)
T7F44 000:605.738 - 0.004ms returns 0x00000000
T7F44 000:605.998 JLINK_HasError()
T7F44 000:606.008 JLINK_WriteReg(R0, 0x00000001)
T7F44 000:606.014 - 0.006ms returns 0
T7F44 000:606.019 JLINK_WriteReg(R1, 0x00002000)
T7F44 000:606.024 - 0.004ms returns 0
T7F44 000:606.029 JLINK_WriteReg(R2, 0x000000FF)
T7F44 000:606.034 - 0.005ms returns 0
T7F44 000:606.045 JLINK_WriteReg(R3, 0x00000000)
T7F44 000:606.050 - 0.004ms returns 0
T7F44 000:606.055 JLINK_WriteReg(R4, 0x00000000)
T7F44 000:606.060 - 0.004ms returns 0
T7F44 000:606.065 JLINK_WriteReg(R5, 0x00000000)
T7F44 000:606.069 - 0.004ms returns 0
T7F44 000:606.075 JLINK_WriteReg(R6, 0x00000000)
T7F44 000:606.079 - 0.004ms returns 0
T7F44 000:606.085 JLINK_WriteReg(R7, 0x00000000)
T7F44 000:606.089 - 0.004ms returns 0
T7F44 000:606.095 JLINK_WriteReg(R8, 0x00000000)
T7F44 000:606.099 - 0.004ms returns 0
T7F44 000:606.104 JLINK_WriteReg(R9, 0x20000400)
T7F44 000:606.109 - 0.004ms returns 0
T7F44 000:606.114 JLINK_WriteReg(R10, 0x00000000)
T7F44 000:606.119 - 0.004ms returns 0
T7F44 000:606.124 JLINK_WriteReg(R11, 0x00000000)
T7F44 000:606.129 - 0.004ms returns 0
T7F44 000:606.134 JLINK_WriteReg(R12, 0x00000000)
T7F44 000:606.139 - 0.004ms returns 0
T7F44 000:606.144 JLINK_WriteReg(R13 (SP), 0x20001000)
T7F44 000:606.149 - 0.004ms returns 0
T7F44 000:606.154 JLINK_WriteReg(R14, 0x20000001)
T7F44 000:606.159 - 0.004ms returns 0
T7F44 000:606.165 JLINK_WriteReg(R15 (PC), 0x20000204)
T7F44 000:606.169 - 0.004ms returns 0
T7F44 000:606.175 JLINK_WriteReg(XPSR, 0x01000000)
T7F44 000:606.179 - 0.004ms returns 0
T7F44 000:606.185 JLINK_WriteReg(MSP, 0x20001000)
T7F44 000:606.189 - 0.004ms returns 0
T7F44 000:606.194 JLINK_WriteReg(PSP, 0x20001000)
T7F44 000:606.199 - 0.004ms returns 0
T7F44 000:606.204 JLINK_WriteReg(CFBP, 0x00000000)
T7F44 000:606.209 - 0.004ms returns 0
T7F44 000:606.215 JLINK_SetBPEx(Addr = 0x20000000, Type = 0xFFFFFFF2)
T7F44 000:606.220 - 0.005ms returns 0x00000006
T7F44 000:606.226 JLINK_Go()
T7F44 000:606.235   CPU_ReadMem(4 bytes @ 0xE0001000)
T7F44 000:609.620 - 3.394ms 
T7F44 000:609.636 JLINK_IsHalted()
T7F44 000:612.233   CPU_ReadMem(2 bytes @ 0x20000000)
T7F44 000:612.741 - 3.105ms returns TRUE
T7F44 000:612.752 JLINK_ReadReg(R15 (PC))
T7F44 000:612.757 - 0.005ms returns 0x20000000
T7F44 000:612.803 JLINK_ClrBPEx(BPHandle = 0x00000006)
T7F44 000:612.808 - 0.005ms returns 0x00
T7F44 000:612.814 JLINK_ReadReg(R0)
T7F44 000:612.818 - 0.004ms returns 0x00000000
T7F44 000:673.428 JLINK_WriteMem(0x20000000, 0x408 Bytes, ...)
T7F44 000:673.441   Data:  00 BE 0A E0 0D 78 2D 06 68 40 08 24 40 00 00 D3 ...
T7F44 000:673.459   CPU_WriteMem(1032 bytes @ 0x20000000)
T7F44 000:677.409 - 3.981ms returns 0x408
T7F44 000:677.439 JLINK_HasError()
T7F44 000:677.445 JLINK_WriteReg(R0, 0x08000000)
T7F44 000:677.451 - 0.005ms returns 0
T7F44 000:677.456 JLINK_WriteReg(R1, 0x00B71B00)
T7F44 000:677.461 - 0.004ms returns 0
T7F44 000:677.465 JLINK_WriteReg(R2, 0x00000002)
T7F44 000:677.470 - 0.004ms returns 0
T7F44 000:677.474 JLINK_WriteReg(R3, 0x00000000)
T7F44 000:677.479 - 0.004ms returns 0
T7F44 000:677.484 JLINK_WriteReg(R4, 0x00000000)
T7F44 000:677.488 - 0.004ms returns 0
T7F44 000:677.492 JLINK_WriteReg(R5, 0x00000000)
T7F44 000:677.497 - 0.004ms returns 0
T7F44 000:677.502 JLINK_WriteReg(R6, 0x00000000)
T7F44 000:677.506 - 0.004ms returns 0
T7F44 000:677.510 JLINK_WriteReg(R7, 0x00000000)
T7F44 000:677.514 - 0.004ms returns 0
T7F44 000:677.519 JLINK_WriteReg(R8, 0x00000000)
T7F44 000:677.523 - 0.004ms returns 0
T7F44 000:677.528 JLINK_WriteReg(R9, 0x20000400)
T7F44 000:677.532 - 0.004ms returns 0
T7F44 000:677.537 JLINK_WriteReg(R10, 0x00000000)
T7F44 000:677.541 - 0.004ms returns 0
T7F44 000:677.546 JLINK_WriteReg(R11, 0x00000000)
T7F44 000:677.550 - 0.004ms returns 0
T7F44 000:677.555 JLINK_WriteReg(R12, 0x00000000)
T7F44 000:677.559 - 0.004ms returns 0
T7F44 000:677.565 JLINK_WriteReg(R13 (SP), 0x20001000)
T7F44 000:677.570 - 0.005ms returns 0
T7F44 000:677.575 JLINK_WriteReg(R14, 0x20000001)
T7F44 000:677.579 - 0.004ms returns 0
T7F44 000:677.584 JLINK_WriteReg(R15 (PC), 0x200001A8)
T7F44 000:677.588 - 0.004ms returns 0
T7F44 000:677.594 JLINK_WriteReg(XPSR, 0x01000000)
T7F44 000:677.598 - 0.004ms returns 0
T7F44 000:677.602 JLINK_WriteReg(MSP, 0x20001000)
T7F44 000:677.607 - 0.004ms returns 0
T7F44 000:677.615 JLINK_WriteReg(PSP, 0x20001000)
T7F44 000:677.622 - 0.006ms returns 0
T7F44 000:677.627 JLINK_WriteReg(CFBP, 0x00000000)
T7F44 000:677.631 - 0.004ms returns 0
T7F44 000:677.636 JLINK_SetBPEx(Addr = 0x20000000, Type = 0xFFFFFFF2)
T7F44 000:677.644   CPU_ReadMem(4 bytes @ 0x20000000)
T7F44 000:678.226   CPU_WriteMem(4 bytes @ 0x20000000)
T7F44 000:678.777   CPU_ReadMem(4 bytes @ 0x20000000)
T7F44 000:679.251   CPU_WriteMem(4 bytes @ 0x20000000)
T7F44 000:679.833   CPU_ReadMem(2 bytes @ 0x20000000)
T7F44 000:680.283 - 2.647ms returns 0x00000007
T7F44 000:680.290 JLINK_Go()
T7F44 000:680.296   CPU_WriteMem(2 bytes @ 0x20000000)
T7F44 000:680.848   CPU_ReadMem(4 bytes @ 0xE0001000)
T7F44 000:684.055 - 3.763ms 
T7F44 000:684.087 JLINK_IsHalted()
T7F44 000:686.955   CPU_ReadMem(2 bytes @ 0x20000000)
T7F44 000:687.489 - 3.400ms returns TRUE
T7F44 000:687.508 JLINK_ReadReg(R15 (PC))
T7F44 000:687.524 - 0.016ms returns 0x20000000
T7F44 000:687.529 JLINK_ClrBPEx(BPHandle = 0x00000007)
T7F44 000:687.533 - 0.004ms returns 0x00
T7F44 000:687.538 JLINK_ReadReg(R0)
T7F44 000:687.542 - 0.004ms returns 0x00000000
T7F44 000:687.749 JLINK_WriteMem(0x20000408, 0x100 Bytes, ...)
T7F44 000:687.756   Data:  80 07 00 20 D5 00 00 08 57 1C 00 08 55 1C 00 08 ...
T7F44 000:687.769   CPU_WriteMem(256 bytes @ 0x20000408)
T7F44 000:689.095 - 1.345ms returns 0x100
T7F44 000:689.106 JLINK_HasError()
T7F44 000:689.134 JLINK_WriteReg(R0, 0x08000000)
T7F44 000:689.139 - 0.005ms returns 0
T7F44 000:689.143 JLINK_WriteReg(R1, 0x00000100)
T7F44 000:689.147 - 0.003ms returns 0
T7F44 000:689.152 JLINK_WriteReg(R2, 0x20000408)
T7F44 000:689.155 - 0.003ms returns 0
T7F44 000:689.160 JLINK_WriteReg(R3, 0x00000000)
T7F44 000:689.164 - 0.003ms returns 0
T7F44 000:689.168 JLINK_WriteReg(R4, 0x00000000)
T7F44 000:689.172 - 0.003ms returns 0
T7F44 000:689.176 JLINK_WriteReg(R5, 0x00000000)
T7F44 000:689.180 - 0.003ms returns 0
T7F44 000:689.184 JLINK_WriteReg(R6, 0x00000000)
T7F44 000:689.189 - 0.004ms returns 0
T7F44 000:689.193 JLINK_WriteReg(R7, 0x00000000)
T7F44 000:689.197 - 0.003ms returns 0
T7F44 000:689.201 JLINK_WriteReg(R8, 0x00000000)
T7F44 000:689.205 - 0.003ms returns 0
T7F44 000:689.210 JLINK_WriteReg(R9, 0x20000400)
T7F44 000:689.214 - 0.003ms returns 0
T7F44 000:689.218 JLINK_WriteReg(R10, 0x00000000)
T7F44 000:689.222 - 0.003ms returns 0
T7F44 000:689.226 JLINK_WriteReg(R11, 0x00000000)
T7F44 000:689.230 - 0.003ms returns 0
T7F44 000:689.234 JLINK_WriteReg(R12, 0x00000000)
T7F44 000:689.238 - 0.003ms returns 0
T7F44 000:689.243 JLINK_WriteReg(R13 (SP), 0x20001000)
T7F44 000:689.247 - 0.004ms returns 0
T7F44 000:689.251 JLINK_WriteReg(R14, 0x20000001)
T7F44 000:689.255 - 0.003ms returns 0
T7F44 000:689.259 JLINK_WriteReg(R15 (PC), 0x20000322)
T7F44 000:689.263 - 0.003ms returns 0
T7F44 000:689.268 JLINK_WriteReg(XPSR, 0x01000000)
T7F44 000:689.272 - 0.003ms returns 0
T7F44 000:689.276 JLINK_WriteReg(MSP, 0x20001000)
T7F44 000:689.280 - 0.003ms returns 0
T7F44 000:689.284 JLINK_WriteReg(PSP, 0x20001000)
T7F44 000:689.288 - 0.003ms returns 0
T7F44 000:689.292 JLINK_WriteReg(CFBP, 0x00000000)
T7F44 000:689.296 - 0.003ms returns 0
T7F44 000:689.301 JLINK_SetBPEx(Addr = 0x20000000, Type = 0xFFFFFFF2)
T7F44 000:689.305 - 0.004ms returns 0x00000008
T7F44 000:689.310 JLINK_Go()
T7F44 000:689.317   CPU_ReadMem(4 bytes @ 0xE0001000)
T7F44 000:692.506 - 3.194ms 
T7F44 000:692.528 JLINK_IsHalted()
T7F44 000:693.697 - 1.169ms returns FALSE
T7F44 000:693.703 JLINK_HasError()
T7F44 000:696.524 JLINK_IsHalted()
T7F44 000:699.170   CPU_ReadMem(2 bytes @ 0x20000000)
T7F44 000:699.716 - 3.192ms returns TRUE
T7F44 000:699.736 JLINK_ReadReg(R15 (PC))
T7F44 000:699.745 - 0.008ms returns 0x20000000
T7F44 000:699.751 JLINK_ClrBPEx(BPHandle = 0x00000008)
T7F44 000:699.757 - 0.005ms returns 0x00
T7F44 000:699.763 JLINK_ReadReg(R0)
T7F44 000:699.768 - 0.005ms returns 0x00000000
T7F44 000:702.255 JLINK_WriteMem(0x20000408, 0x100 Bytes, ...)
T7F44 000:702.271   Data:  D5 40 9D 42 05 D3 1D 46 95 40 49 1B 25 46 95 40 ...
T7F44 000:702.335   CPU_WriteMem(256 bytes @ 0x20000408)
T7F44 000:703.676 - 1.420ms returns 0x100
T7F44 000:703.694 JLINK_HasError()
T7F44 000:703.701 JLINK_WriteReg(R0, 0x08000100)
T7F44 000:703.708 - 0.007ms returns 0
T7F44 000:703.714 JLINK_WriteReg(R1, 0x00000100)
T7F44 000:703.719 - 0.004ms returns 0
T7F44 000:703.725 JLINK_WriteReg(R2, 0x20000408)
T7F44 000:703.730 - 0.004ms returns 0
T7F44 000:703.735 JLINK_WriteReg(R3, 0x00000000)
T7F44 000:703.739 - 0.004ms returns 0
T7F44 000:703.745 JLINK_WriteReg(R4, 0x00000000)
T7F44 000:703.749 - 0.004ms returns 0
T7F44 000:703.754 JLINK_WriteReg(R5, 0x00000000)
T7F44 000:703.759 - 0.004ms returns 0
T7F44 000:703.764 JLINK_WriteReg(R6, 0x00000000)
T7F44 000:703.768 - 0.004ms returns 0
T7F44 000:703.773 JLINK_WriteReg(R7, 0x00000000)
T7F44 000:703.778 - 0.004ms returns 0
T7F44 000:703.783 JLINK_WriteReg(R8, 0x00000000)
T7F44 000:703.788 - 0.004ms returns 0
T7F44 000:703.793 JLINK_WriteReg(R9, 0x20000400)
T7F44 000:703.797 - 0.004ms returns 0
T7F44 000:703.802 JLINK_WriteReg(R10, 0x00000000)
T7F44 000:703.807 - 0.004ms returns 0
T7F44 000:703.812 JLINK_WriteReg(R11, 0x00000000)
T7F44 000:703.817 - 0.004ms returns 0
T7F44 000:703.822 JLINK_WriteReg(R12, 0x00000000)
T7F44 000:703.827 - 0.004ms returns 0
T7F44 000:703.832 JLINK_WriteReg(R13 (SP), 0x20001000)
T7F44 000:703.837 - 0.005ms returns 0
T7F44 000:703.842 JLINK_WriteReg(R14, 0x20000001)
T7F44 000:703.847 - 0.004ms returns 0
T7F44 000:703.852 JLINK_WriteReg(R15 (PC), 0x20000322)
T7F44 000:703.857 - 0.004ms returns 0
T7F44 000:703.862 JLINK_WriteReg(XPSR, 0x01000000)
T7F44 000:703.867 - 0.005ms returns 0
T7F44 000:703.872 JLINK_WriteReg(MSP, 0x20001000)
T7F44 000:703.876 - 0.004ms returns 0
T7F44 000:703.882 JLINK_WriteReg(PSP, 0x20001000)
T7F44 000:703.886 - 0.004ms returns 0
T7F44 000:703.891 JLINK_WriteReg(CFBP, 0x00000000)
T7F44 000:703.896 - 0.004ms returns 0
T7F44 000:703.902 JLINK_SetBPEx(Addr = 0x20000000, Type = 0xFFFFFFF2)
T7F44 000:703.907 - 0.006ms returns 0x00000009
T7F44 000:703.913 JLINK_Go()
T7F44 000:703.923   CPU_ReadMem(4 bytes @ 0xE0001000)
T7F44 000:707.150 - 3.236ms 
T7F44 000:707.163 JLINK_IsHalted()
T7F44 000:708.279 - 1.115ms returns FALSE
T7F44 000:708.285 JLINK_HasError()
T7F44 000:709.679 JLINK_IsHalted()
T7F44 000:712.293   CPU_ReadMem(2 bytes @ 0x20000000)
T7F44 000:712.829 - 3.150ms returns TRUE
T7F44 000:712.838 JLINK_ReadReg(R15 (PC))
T7F44 000:712.844 - 0.006ms returns 0x20000000
T7F44 000:712.851 JLINK_ClrBPEx(BPHandle = 0x00000009)
T7F44 000:712.857 - 0.006ms returns 0x00
T7F44 000:712.863 JLINK_ReadReg(R0)
T7F44 000:712.869 - 0.005ms returns 0x00000000
T7F44 000:713.274 JLINK_WriteMem(0x20000408, 0x100 Bytes, ...)
T7F44 000:713.286   Data:  11 40 5A 01 91 42 04 D1 41 68 00 68 80 F3 08 88 ...
T7F44 000:713.298   CPU_WriteMem(256 bytes @ 0x20000408)
T7F44 000:714.661 - 1.387ms returns 0x100
T7F44 000:714.671 JLINK_HasError()
T7F44 000:714.678 JLINK_WriteReg(R0, 0x08000200)
T7F44 000:714.685 - 0.007ms returns 0
T7F44 000:715.003 JLINK_WriteReg(R1, 0x00000100)
T7F44 000:715.079 - 0.076ms returns 0
T7F44 000:715.089 JLINK_WriteReg(R2, 0x20000408)
T7F44 000:715.094 - 0.006ms returns 0
T7F44 000:715.101 JLINK_WriteReg(R3, 0x00000000)
T7F44 000:715.107 - 0.005ms returns 0
T7F44 000:715.113 JLINK_WriteReg(R4, 0x00000000)
T7F44 000:715.118 - 0.005ms returns 0
T7F44 000:715.124 JLINK_WriteReg(R5, 0x00000000)
T7F44 000:715.130 - 0.005ms returns 0
T7F44 000:715.136 JLINK_WriteReg(R6, 0x00000000)
T7F44 000:715.142 - 0.005ms returns 0
T7F44 000:715.149 JLINK_WriteReg(R7, 0x00000000)
T7F44 000:715.156 - 0.007ms returns 0
T7F44 000:715.166 JLINK_WriteReg(R8, 0x00000000)
T7F44 000:715.174 - 0.008ms returns 0
T7F44 000:715.183 JLINK_WriteReg(R9, 0x20000400)
T7F44 000:715.191 - 0.008ms returns 0
T7F44 000:715.200 JLINK_WriteReg(R10, 0x00000000)
T7F44 000:715.208 - 0.008ms returns 0
T7F44 000:715.216 JLINK_WriteReg(R11, 0x00000000)
T7F44 000:715.224 - 0.007ms returns 0
T7F44 000:715.237 JLINK_WriteReg(R12, 0x00000000)
T7F44 000:715.245 - 0.008ms returns 0
T7F44 000:715.251 JLINK_WriteReg(R13 (SP), 0x20001000)
T7F44 000:715.257 - 0.006ms returns 0
T7F44 000:715.263 JLINK_WriteReg(R14, 0x20000001)
T7F44 000:715.269 - 0.005ms returns 0
T7F44 000:715.275 JLINK_WriteReg(R15 (PC), 0x20000322)
T7F44 000:715.281 - 0.005ms returns 0
T7F44 000:715.287 JLINK_WriteReg(XPSR, 0x01000000)
T7F44 000:715.292 - 0.005ms returns 0
T7F44 000:715.299 JLINK_WriteReg(MSP, 0x20001000)
T7F44 000:715.304 - 0.005ms returns 0
T7F44 000:715.311 JLINK_WriteReg(PSP, 0x20001000)
T7F44 000:715.316 - 0.005ms returns 0
T7F44 000:715.322 JLINK_WriteReg(CFBP, 0x00000000)
T7F44 000:715.327 - 0.005ms returns 0
T7F44 000:715.335 JLINK_SetBPEx(Addr = 0x20000000, Type = 0xFFFFFFF2)
T7F44 000:715.342 - 0.007ms returns 0x0000000A
T7F44 000:715.348 JLINK_Go()
T7F44 000:715.360   CPU_ReadMem(4 bytes @ 0xE0001000)
T7F44 000:718.729 - 3.379ms 
T7F44 000:718.746 JLINK_IsHalted()
T7F44 000:719.913 - 1.165ms returns FALSE
T7F44 000:719.932 JLINK_HasError()
T7F44 000:721.143 JLINK_IsHalted()
T7F44 000:724.064   CPU_ReadMem(2 bytes @ 0x20000000)
T7F44 000:724.582 - 3.439ms returns TRUE
T7F44 000:724.594 JLINK_ReadReg(R15 (PC))
T7F44 000:724.603 - 0.009ms returns 0x20000000
T7F44 000:724.614 JLINK_ClrBPEx(BPHandle = 0x0000000A)
T7F44 000:724.622 - 0.007ms returns 0x00
T7F44 000:724.630 JLINK_ReadReg(R0)
T7F44 000:724.638 - 0.007ms returns 0x00000000
T7F44 000:725.175 JLINK_WriteMem(0x20000408, 0x100 Bytes, ...)
T7F44 000:725.189   Data:  00 F0 04 F9 C6 E7 78 69 00 28 05 DA 5D 48 B8 60 ...
T7F44 000:725.206   CPU_WriteMem(256 bytes @ 0x20000408)
T7F44 000:726.571 - 1.394ms returns 0x100
T7F44 000:726.594 JLINK_HasError()
T7F44 000:726.605 JLINK_WriteReg(R0, 0x08000300)
T7F44 000:726.616 - 0.011ms returns 0
T7F44 000:726.625 JLINK_WriteReg(R1, 0x00000100)
T7F44 000:726.633 - 0.007ms returns 0
T7F44 000:726.647 JLINK_WriteReg(R2, 0x20000408)
T7F44 000:726.658 - 0.010ms returns 0
T7F44 000:726.667 JLINK_WriteReg(R3, 0x00000000)
T7F44 000:726.674 - 0.007ms returns 0
T7F44 000:726.683 JLINK_WriteReg(R4, 0x00000000)
T7F44 000:726.690 - 0.007ms returns 0
T7F44 000:726.699 JLINK_WriteReg(R5, 0x00000000)
T7F44 000:726.706 - 0.007ms returns 0
T7F44 000:726.715 JLINK_WriteReg(R6, 0x00000000)
T7F44 000:726.722 - 0.007ms returns 0
T7F44 000:726.730 JLINK_WriteReg(R7, 0x00000000)
T7F44 000:726.737 - 0.007ms returns 0
T7F44 000:726.746 JLINK_WriteReg(R8, 0x00000000)
T7F44 000:726.753 - 0.007ms returns 0
T7F44 000:726.761 JLINK_WriteReg(R9, 0x20000400)
T7F44 000:726.768 - 0.007ms returns 0
T7F44 000:726.777 JLINK_WriteReg(R10, 0x00000000)
T7F44 000:726.784 - 0.007ms returns 0
T7F44 000:726.793 JLINK_WriteReg(R11, 0x00000000)
T7F44 000:726.803 - 0.010ms returns 0
T7F44 000:726.810 JLINK_WriteReg(R12, 0x00000000)
T7F44 000:726.817 - 0.006ms returns 0
T7F44 000:726.841 JLINK_WriteReg(R13 (SP), 0x20001000)
T7F44 000:726.860 - 0.020ms returns 0
T7F44 000:726.869 JLINK_WriteReg(R14, 0x20000001)
T7F44 000:726.876 - 0.007ms returns 0
T7F44 000:726.884 JLINK_WriteReg(R15 (PC), 0x20000322)
T7F44 000:726.891 - 0.007ms returns 0
T7F44 000:726.899 JLINK_WriteReg(XPSR, 0x01000000)
T7F44 000:726.906 - 0.006ms returns 0
T7F44 000:726.914 JLINK_WriteReg(MSP, 0x20001000)
T7F44 000:726.921 - 0.006ms returns 0
T7F44 000:726.928 JLINK_WriteReg(PSP, 0x20001000)
T7F44 000:726.935 - 0.006ms returns 0
T7F44 000:726.943 JLINK_WriteReg(CFBP, 0x00000000)
T7F44 000:726.949 - 0.006ms returns 0
T7F44 000:726.958 JLINK_SetBPEx(Addr = 0x20000000, Type = 0xFFFFFFF2)
T7F44 000:726.967 - 0.009ms returns 0x0000000B
T7F44 000:726.975 JLINK_Go()
T7F44 000:726.988   CPU_ReadMem(4 bytes @ 0xE0001000)
T7F44 000:730.160 - 3.184ms 
T7F44 000:730.176 JLINK_IsHalted()
T7F44 000:731.340 - 1.163ms returns FALSE
T7F44 000:731.376 JLINK_HasError()
T7F44 000:733.370 JLINK_IsHalted()
T7F44 000:736.037   CPU_ReadMem(2 bytes @ 0x20000000)
T7F44 000:736.624 - 3.253ms returns TRUE
T7F44 000:736.635 JLINK_ReadReg(R15 (PC))
T7F44 000:736.648 - 0.012ms returns 0x20000000
T7F44 000:736.658 JLINK_ClrBPEx(BPHandle = 0x0000000B)
T7F44 000:736.665 - 0.006ms returns 0x00
T7F44 000:736.672 JLINK_ReadReg(R0)
T7F44 000:736.678 - 0.006ms returns 0x00000000
T7F44 000:737.192 JLINK_WriteMem(0x20000408, 0x100 Bytes, ...)
T7F44 000:737.206   Data:  59 70 11 22 04 A9 23 48 00 F0 A6 FD 06 46 A7 E7 ...
T7F44 000:737.221   CPU_WriteMem(256 bytes @ 0x20000408)
T7F44 000:738.626 - 1.433ms returns 0x100
T7F44 000:738.637 JLINK_HasError()
T7F44 000:738.645 JLINK_WriteReg(R0, 0x08000400)
T7F44 000:738.653 - 0.007ms returns 0
T7F44 000:738.660 JLINK_WriteReg(R1, 0x00000100)
T7F44 000:738.666 - 0.006ms returns 0
T7F44 000:738.673 JLINK_WriteReg(R2, 0x20000408)
T7F44 000:738.679 - 0.006ms returns 0
T7F44 000:738.686 JLINK_WriteReg(R3, 0x00000000)
T7F44 000:738.692 - 0.005ms returns 0
T7F44 000:738.699 JLINK_WriteReg(R4, 0x00000000)
T7F44 000:738.705 - 0.006ms returns 0
T7F44 000:738.712 JLINK_WriteReg(R5, 0x00000000)
T7F44 000:738.718 - 0.006ms returns 0
T7F44 000:738.725 JLINK_WriteReg(R6, 0x00000000)
T7F44 000:738.731 - 0.006ms returns 0
T7F44 000:738.740 JLINK_WriteReg(R7, 0x00000000)
T7F44 000:738.746 - 0.005ms returns 0
T7F44 000:738.752 JLINK_WriteReg(R8, 0x00000000)
T7F44 000:738.758 - 0.005ms returns 0
T7F44 000:738.764 JLINK_WriteReg(R9, 0x20000400)
T7F44 000:738.770 - 0.005ms returns 0
T7F44 000:738.777 JLINK_WriteReg(R10, 0x00000000)
T7F44 000:738.782 - 0.005ms returns 0
T7F44 000:738.793 JLINK_WriteReg(R11, 0x00000000)
T7F44 000:738.802 - 0.008ms returns 0
T7F44 000:738.809 JLINK_WriteReg(R12, 0x00000000)
T7F44 000:738.815 - 0.005ms returns 0
T7F44 000:738.821 JLINK_WriteReg(R13 (SP), 0x20001000)
T7F44 000:738.827 - 0.006ms returns 0
T7F44 000:738.834 JLINK_WriteReg(R14, 0x20000001)
T7F44 000:738.840 - 0.006ms returns 0
T7F44 000:738.846 JLINK_WriteReg(R15 (PC), 0x20000322)
T7F44 000:738.852 - 0.006ms returns 0
T7F44 000:738.859 JLINK_WriteReg(XPSR, 0x01000000)
T7F44 000:738.865 - 0.005ms returns 0
T7F44 000:738.872 JLINK_WriteReg(MSP, 0x20001000)
T7F44 000:738.877 - 0.005ms returns 0
T7F44 000:738.884 JLINK_WriteReg(PSP, 0x20001000)
T7F44 000:738.890 - 0.005ms returns 0
T7F44 000:738.896 JLINK_WriteReg(CFBP, 0x00000000)
T7F44 000:738.903 - 0.006ms returns 0
T7F44 000:738.910 JLINK_SetBPEx(Addr = 0x20000000, Type = 0xFFFFFFF2)
T7F44 000:738.916 - 0.007ms returns 0x0000000C
T7F44 000:738.923 JLINK_Go()
T7F44 000:738.934   CPU_ReadMem(4 bytes @ 0xE0001000)
T7F44 000:742.237 - 3.312ms 
T7F44 000:742.274 JLINK_IsHalted()
T7F44 000:743.383 - 1.108ms returns FALSE
T7F44 000:743.402 JLINK_HasError()
T7F44 000:745.410 JLINK_IsHalted()
T7F44 000:748.196   CPU_ReadMem(2 bytes @ 0x20000000)
T7F44 000:748.798 - 3.388ms returns TRUE
T7F44 000:748.827 JLINK_ReadReg(R15 (PC))
T7F44 000:748.839 - 0.012ms returns 0x20000000
T7F44 000:748.848 JLINK_ClrBPEx(BPHandle = 0x0000000C)
T7F44 000:748.857 - 0.008ms returns 0x00
T7F44 000:748.866 JLINK_ReadReg(R0)
T7F44 000:748.874 - 0.007ms returns 0x00000000
T7F44 000:749.485 JLINK_WriteMem(0x20000408, 0x100 Bytes, ...)
T7F44 000:749.500   Data:  00 44 00 40 00 48 00 40 00 4C 00 40 01 B5 01 21 ...
T7F44 000:749.519   CPU_WriteMem(256 bytes @ 0x20000408)
T7F44 000:750.911 - 1.424ms returns 0x100
T7F44 000:750.931 JLINK_HasError()
T7F44 000:750.940 JLINK_WriteReg(R0, 0x08000500)
T7F44 000:750.948 - 0.008ms returns 0
T7F44 000:750.955 JLINK_WriteReg(R1, 0x00000100)
T7F44 000:750.961 - 0.006ms returns 0
T7F44 000:750.969 JLINK_WriteReg(R2, 0x20000408)
T7F44 000:750.975 - 0.006ms returns 0
T7F44 000:750.982 JLINK_WriteReg(R3, 0x00000000)
T7F44 000:750.988 - 0.006ms returns 0
T7F44 000:750.995 JLINK_WriteReg(R4, 0x00000000)
T7F44 000:751.001 - 0.006ms returns 0
T7F44 000:751.008 JLINK_WriteReg(R5, 0x00000000)
T7F44 000:751.014 - 0.006ms returns 0
T7F44 000:751.021 JLINK_WriteReg(R6, 0x00000000)
T7F44 000:751.027 - 0.006ms returns 0
T7F44 000:751.035 JLINK_WriteReg(R7, 0x00000000)
T7F44 000:751.041 - 0.006ms returns 0
T7F44 000:751.048 JLINK_WriteReg(R8, 0x00000000)
T7F44 000:751.059 - 0.011ms returns 0
T7F44 000:751.069 JLINK_WriteReg(R9, 0x20000400)
T7F44 000:751.075 - 0.006ms returns 0
T7F44 000:751.082 JLINK_WriteReg(R10, 0x00000000)
T7F44 000:751.088 - 0.006ms returns 0
T7F44 000:751.096 JLINK_WriteReg(R11, 0x00000000)
T7F44 000:751.102 - 0.006ms returns 0
T7F44 000:751.109 JLINK_WriteReg(R12, 0x00000000)
T7F44 000:751.115 - 0.006ms returns 0
T7F44 000:751.122 JLINK_WriteReg(R13 (SP), 0x20001000)
T7F44 000:751.129 - 0.006ms returns 0
T7F44 000:751.136 JLINK_WriteReg(R14, 0x20000001)
T7F44 000:751.142 - 0.006ms returns 0
T7F44 000:751.149 JLINK_WriteReg(R15 (PC), 0x20000322)
T7F44 000:751.155 - 0.006ms returns 0
T7F44 000:751.163 JLINK_WriteReg(XPSR, 0x01000000)
T7F44 000:751.169 - 0.006ms returns 0
T7F44 000:751.176 JLINK_WriteReg(MSP, 0x20001000)
T7F44 000:751.182 - 0.006ms returns 0
T7F44 000:751.189 JLINK_WriteReg(PSP, 0x20001000)
T7F44 000:751.195 - 0.006ms returns 0
T7F44 000:751.202 JLINK_WriteReg(CFBP, 0x00000000)
T7F44 000:751.208 - 0.006ms returns 0
T7F44 000:751.216 JLINK_SetBPEx(Addr = 0x20000000, Type = 0xFFFFFFF2)
T7F44 000:751.223 - 0.007ms returns 0x0000000D
T7F44 000:751.230 JLINK_Go()
T7F44 000:751.241   CPU_ReadMem(4 bytes @ 0xE0001000)
T7F44 000:754.492 - 3.261ms 
T7F44 000:754.503 JLINK_IsHalted()
T7F44 000:755.687 - 1.182ms returns FALSE
T7F44 000:755.703 JLINK_HasError()
T7F44 000:757.381 JLINK_IsHalted()
T7F44 000:760.188   CPU_ReadMem(2 bytes @ 0x20000000)
T7F44 000:760.761 - 3.380ms returns TRUE
T7F44 000:760.777 JLINK_ReadReg(R15 (PC))
T7F44 000:760.788 - 0.011ms returns 0x20000000
T7F44 000:760.800 JLINK_ClrBPEx(BPHandle = 0x0000000D)
T7F44 000:760.810 - 0.010ms returns 0x00
T7F44 000:760.821 JLINK_ReadReg(R0)
T7F44 000:760.831 - 0.009ms returns 0x00000000
T7F44 000:761.553 JLINK_WriteMem(0x20000408, 0x100 Bytes, ...)
T7F44 000:761.571   Data:  41 63 C3 6B 01 21 89 04 8B 43 C3 63 43 6A 13 43 ...
T7F44 000:761.592   CPU_WriteMem(256 bytes @ 0x20000408)
T7F44 000:762.972 - 1.419ms returns 0x100
T7F44 000:762.994 JLINK_HasError()
T7F44 000:763.006 JLINK_WriteReg(R0, 0x08000600)
T7F44 000:763.018 - 0.011ms returns 0
T7F44 000:763.028 JLINK_WriteReg(R1, 0x00000100)
T7F44 000:763.037 - 0.009ms returns 0
T7F44 000:763.047 JLINK_WriteReg(R2, 0x20000408)
T7F44 000:763.056 - 0.008ms returns 0
T7F44 000:763.066 JLINK_WriteReg(R3, 0x00000000)
T7F44 000:763.075 - 0.009ms returns 0
T7F44 000:763.085 JLINK_WriteReg(R4, 0x00000000)
T7F44 000:763.093 - 0.008ms returns 0
T7F44 000:763.103 JLINK_WriteReg(R5, 0x00000000)
T7F44 000:763.111 - 0.008ms returns 0
T7F44 000:763.122 JLINK_WriteReg(R6, 0x00000000)
T7F44 000:763.131 - 0.008ms returns 0
T7F44 000:763.140 JLINK_WriteReg(R7, 0x00000000)
T7F44 000:763.150 - 0.009ms returns 0
T7F44 000:763.160 JLINK_WriteReg(R8, 0x00000000)
T7F44 000:763.168 - 0.008ms returns 0
T7F44 000:763.178 JLINK_WriteReg(R9, 0x20000400)
T7F44 000:763.189 - 0.011ms returns 0
T7F44 000:763.198 JLINK_WriteReg(R10, 0x00000000)
T7F44 000:763.207 - 0.008ms returns 0
T7F44 000:763.215 JLINK_WriteReg(R11, 0x00000000)
T7F44 000:763.223 - 0.007ms returns 0
T7F44 000:763.232 JLINK_WriteReg(R12, 0x00000000)
T7F44 000:763.239 - 0.007ms returns 0
T7F44 000:763.249 JLINK_WriteReg(R13 (SP), 0x20001000)
T7F44 000:763.257 - 0.008ms returns 0
T7F44 000:763.266 JLINK_WriteReg(R14, 0x20000001)
T7F44 000:763.273 - 0.007ms returns 0
T7F44 000:763.282 JLINK_WriteReg(R15 (PC), 0x20000322)
T7F44 000:763.294 - 0.008ms returns 0
T7F44 000:763.307 JLINK_WriteReg(XPSR, 0x01000000)
T7F44 000:763.316 - 0.008ms returns 0
T7F44 000:763.325 JLINK_WriteReg(MSP, 0x20001000)
T7F44 000:763.333 - 0.007ms returns 0
T7F44 000:763.342 JLINK_WriteReg(PSP, 0x20001000)
T7F44 000:763.349 - 0.008ms returns 0
T7F44 000:763.358 JLINK_WriteReg(CFBP, 0x00000000)
T7F44 000:763.367 - 0.008ms returns 0
T7F44 000:763.377 JLINK_SetBPEx(Addr = 0x20000000, Type = 0xFFFFFFF2)
T7F44 000:763.385 - 0.009ms returns 0x0000000E
T7F44 000:763.394 JLINK_Go()
T7F44 000:763.408   CPU_ReadMem(4 bytes @ 0xE0001000)
T7F44 000:766.864 - 3.469ms 
T7F44 000:766.888 JLINK_IsHalted()
T7F44 000:767.977 - 1.088ms returns FALSE
T7F44 000:767.998 JLINK_HasError()
T7F44 000:770.038 JLINK_IsHalted()
T7F44 000:772.697   CPU_ReadMem(2 bytes @ 0x20000000)
T7F44 000:773.205 - 3.166ms returns TRUE
T7F44 000:773.214 JLINK_ReadReg(R15 (PC))
T7F44 000:773.221 - 0.007ms returns 0x20000000
T7F44 000:773.227 JLINK_ClrBPEx(BPHandle = 0x0000000E)
T7F44 000:773.233 - 0.006ms returns 0x00
T7F44 000:773.240 JLINK_ReadReg(R0)
T7F44 000:773.245 - 0.005ms returns 0x00000000
T7F44 000:773.678 JLINK_WriteMem(0x20000408, 0x100 Bytes, ...)
T7F44 000:773.690   Data:  FF F7 D2 FE 68 46 80 78 B8 42 01 D0 00 20 F2 E7 ...
T7F44 000:773.704   CPU_WriteMem(256 bytes @ 0x20000408)
T7F44 000:775.077 - 1.399ms returns 0x100
T7F44 000:775.087 JLINK_HasError()
T7F44 000:775.094 JLINK_WriteReg(R0, 0x08000700)
T7F44 000:775.102 - 0.007ms returns 0
T7F44 000:775.108 JLINK_WriteReg(R1, 0x00000100)
T7F44 000:775.114 - 0.005ms returns 0
T7F44 000:775.121 JLINK_WriteReg(R2, 0x20000408)
T7F44 000:775.127 - 0.005ms returns 0
T7F44 000:775.133 JLINK_WriteReg(R3, 0x00000000)
T7F44 000:775.139 - 0.005ms returns 0
T7F44 000:775.146 JLINK_WriteReg(R4, 0x00000000)
T7F44 000:775.151 - 0.005ms returns 0
T7F44 000:775.158 JLINK_WriteReg(R5, 0x00000000)
T7F44 000:775.163 - 0.005ms returns 0
T7F44 000:775.170 JLINK_WriteReg(R6, 0x00000000)
T7F44 000:775.176 - 0.005ms returns 0
T7F44 000:775.182 JLINK_WriteReg(R7, 0x00000000)
T7F44 000:775.188 - 0.005ms returns 0
T7F44 000:775.195 JLINK_WriteReg(R8, 0x00000000)
T7F44 000:775.201 - 0.005ms returns 0
T7F44 000:775.207 JLINK_WriteReg(R9, 0x20000400)
T7F44 000:775.213 - 0.006ms returns 0
T7F44 000:775.220 JLINK_WriteReg(R10, 0x00000000)
T7F44 000:775.226 - 0.005ms returns 0
T7F44 000:775.232 JLINK_WriteReg(R11, 0x00000000)
T7F44 000:775.238 - 0.005ms returns 0
